!Created with skrf (http://scikit-rf.org).
# Hz S RI R 50.0 
!freq ReS11 ImS11 ReS12 ImS12 ReS13 ImS13
! ReS14 ImS14
! ReS21 ImS21 ReS22 ImS22 ReS23 ImS23
! ReS24 ImS24
! ReS31 ImS31 ReS32 ImS32 ReS33 ImS33
! ReS34 ImS34
! ReS41 ImS41 ReS42 ImS42 ReS43 ImS43
! ReS44 ImS44
!
0.0 -0.49999999999999994 0.0 0.5 0.0 0.5 0.0 0.5000000000000001 0.0
 0.5000000000000001 0.0 -0.4999999999999999 0.0 0.5000000000000001 0.0 0.5 0.0
 0.5 0.0 0.5000000000000001 0.0 -0.4999999999999999 0.0 0.5 0.0
 0.5000000000000002 0.0 0.5 0.0 0.5 0.0 -0.49999999999999994 0.0
2000000.0 -0.5000051282115361 -0.00023000976866467638 0.4999932147434833 -0.00199137738630607 0.499991170666811 -0.0029115312084501523 0.499991981032555 -0.002451454394758562
 0.4999932147434832 -0.001991377386306069 -0.5000051282115361 -0.0002300097686646756 0.49999198103255493 -0.0024514543947585623 0.49999117066681087 -0.0029115312084501514
 0.4999911706668108 -0.0029115312084501497 0.49999198103255504 -0.0024514543947585623 -0.500005128211536 -0.00023000976866467557 0.4999932147434831 -0.0019913773863060695
 0.49999198103255493 -0.0024514543947585597 0.49999117066681087 -0.0029115312084501514 0.49999321474348324 -0.001991377386306069 -0.5000051282115361 -0.00023000976866467633
4000000.0 -0.5000205116241384 -0.00045985138046245267 0.49997286013198483 -0.003982597060654328 0.4999646836492141 -0.005822920530584615 0.4999679251637324 -0.004902759574578058
 0.49997286013198494 -0.003982597060654328 -0.5000205116241384 -0.00045985138046245337 0.4999679251637325 -0.00490275957457806 0.49996468364921415 -0.005822920530584614
 0.4999646836492142 -0.005822920530584614 0.49996792516373256 -0.00490275957457806 -0.5000205116241384 -0.00045985138046245315 0.49997286013198483 -0.003982597060654329
 0.49996792516373256 -0.0049027595745780575 0.4999646836492141 -0.005822920530584615 0.4999728601319849 -0.003982597060654329 -0.5000205116241384 -0.00045985138046245386
6000000.0 -0.5000461465721944 -0.0006893567180768428 0.4999389396392513 -0.0059735013506573365 0.499920541892689 -0.008734026118864395 0.4999278354936433 -0.007353766363267786
 0.4999389396392513 -0.005973501350657336 -0.5000461465721944 -0.0006893567180768421 0.4999278354936433 -0.007353766363267786 0.4999205418926889 -0.008734026118864395
 0.499920541892689 -0.008734026118864391 0.4999278354936433 -0.007353766363267782 -0.5000461465721944 -0.0006893567180768412 0.49993893963925123 -0.005973501350657335
 0.4999278354936433 -0.0073537663632677825 0.499920541892689 -0.008734026118864388 0.4999389396392513 -0.005973501350657334 -0.5000461465721944 -0.0006893567180768428
8000000.0 -0.5000820269476979 -0.000918357743271607 0.4998914590534927 -0.007963932663047768 0.4998587503049262 -0.01164470620328268 0.49987171718771395 -0.009804325662112631
 0.4998914590534927 -0.007963932663047766 -0.5000820269476979 -0.0009183577432716081 0.49987171718771395 -0.009804325662112628 0.4998587503049262 -0.01164470620328268
 0.4998587503049263 -0.01164470620328268 0.49987171718771395 -0.009804325662112631 -0.5000820269476979 -0.0009183577432716075 0.4998914590534927 -0.007963932663047768
 0.49987171718771395 -0.009804325662112628 0.49985875030492627 -0.011644706203282685 0.49989145905349264 -0.007963932663047766 -0.5000820269476979 -0.0009183577432716074
10000000.0 -0.5001281442022731 -0.0011466865363794587 0.4998304264753335 -0.009953733523186884 0.49977931575366696 -0.014554819130077938 0.49979957747455084 -0.012254288488557977
 0.4998304264753335 -0.009953733523186884 -0.5001281442022733 -0.0011466865363794585 0.49979957747455084 -0.012254288488557979 0.499779315753667 -0.014554819130077936
 0.4997793157536671 -0.014554819130077938 0.49979957747455095 -0.012254288488557984 -0.5001281442022731 -0.0011466865363794563 0.4998304264753335 -0.009953733523186882
 0.49979957747455084 -0.01225428848855798 0.4997793157536671 -0.014554819130077945 0.4998304264753335 -0.009953733523186884 -0.5001281442022733 -0.001146686536379456
12000000.0 -0.500184487350004 -0.0013741753357290967 0.49975585231494457 -0.011942746614511182 0.49968224706367836 -0.01746422340038343 0.499711425642952 -0.014703506014831284
 0.49975585231494457 -0.01194274661451118 -0.500184487350004 -0.0013741753357290926 0.499711425642952 -0.014703506014831284 0.4996822470636785 -0.017464223400383432
 0.49968224706367836 -0.01746422340038342 0.4997114256429519 -0.014703506014831278 -0.5001844873500041 -0.0013741753357290928 0.49975585231494457 -0.011942746614511182
 0.4997114256429519 -0.014703506014831271 0.49968224706367836 -0.01746422340038342 0.49975585231494457 -0.011942746614511177 -0.500184487350004 -0.0013741753357290947
14000000.0 -0.5002510429710677 -0.0016006565769901538 0.49966774928836116 -0.013930814817896696 0.4995675550128706 -0.020372777708792162 0.4996072730380689 -0.017151829606479232
 0.4996677492883613 -0.013930814817896701 -0.5002510429710677 -0.001600656576990158 0.49960727303806896 -0.017151829606479235 0.49956755501287053 -0.020372777708792165
 0.49956755501287053 -0.020372777708792165 0.4996072730380689 -0.017151829606479232 -0.5002510429710676 -0.001600656576990155 0.4996677492883612 -0.013930814817896698
 0.49960727303806884 -0.017151829606479242 0.4995675550128705 -0.02037277770879216 0.49966774928836116 -0.013930814817896701 -0.5002510429710676 -0.001600656576990155
16000000.0 -0.5003277952161721 -0.0018259629324156473 0.4995661324129861 -0.015917781250920488 0.4994352523275539 -0.02328034098181605 0.4994871330567199 -0.019599110860799462
 0.49956613241298614 -0.01591778125092048 -0.500327795216172 -0.001825962932415645 0.4994871330567198 -0.019599110860799462 0.49943525232755387 -0.02328034098181605
 0.49943525232755376 -0.02328034098181605 0.49948713305671977 -0.019599110860799455 -0.5003277952161721 -0.001825962932415647 0.4995661324129861 -0.01591778125092048
 0.49948713305671977 -0.019599110860799455 0.4994352523275538 -0.023280340981816056 0.49956613241298603 -0.015917781250920485 -0.5003277952161721 -0.0018259629324156414
18000000.0 -0.5004147258117914 -0.002049927349961564 0.4994510190022845 -0.017903489306998942 0.4992853536768439 -0.026186772416218636 0.49935102114186014 -0.022045201645146124
 0.4994510190022845 -0.017903489306998942 -0.5004147258117913 -0.0020499273499615597 0.4993510211418603 -0.022045201645146124 0.49928535367684385 -0.026186772416218633
 0.4992853536768439 -0.026186772416218633 0.4993510211418601 -0.022045201645146124 -0.5004147258117914 -0.002049927349961569 0.49945101900228445 -0.017903489306998942
 0.49935102114186025 -0.02204520164514612 0.4992853536768438 -0.026186772416218633 0.49945101900228445 -0.01790348930699895 -0.5004147258117914 -0.00204992734996156
20000000.0 -0.5005118140661962 -0.0022723830922636045 0.4993224286596718 -0.01988778269438281 0.4991178756662131 -0.029091931517200284 0.4991989547762111 -0.02448995413508842
 0.49932242865967197 -0.019887782694382815 -0.5005118140661962 -0.002272383092263606 0.4991989547762111 -0.024489954135088417 0.49911787566621324 -0.02909193151720029
 0.49911787566621313 -0.029091931517200298 0.49919895477621123 -0.024489954135088424 -0.5005118140661962 -0.0022723830922636093 0.4993224286596718 -0.01988778269438282
 0.49919895477621123 -0.024489954135088424 0.49911787566621313 -0.029091931517200284 0.49932242865967186 -0.019887782694382815 -0.5005118140661962 -0.002272383092263608
22000000.0 -0.500619036876275 -0.002493163775450868 0.4991803832716019 -0.02187050547498862 0.4989328368301996 -0.03199567813641541 0.49903095347505333 -0.026933220852401504
 0.49918038327160186 -0.021870505474988623 -0.500619036876275 -0.0024931637754508577 0.4990309534750534 -0.026933220852401504 0.4989328368301996 -0.03199567813641541
 0.49893283683019957 -0.03199567813641541 0.4990309534750534 -0.026933220852401504 -0.500619036876275 -0.0024931637754508715 0.49918038327160186 -0.021870505474988623
 0.49903095347505344 -0.026933220852401504 0.4989328368301996 -0.0319956781364154 0.4991803832716019 -0.021870505474988634 -0.500619036876275 -0.002493163775450862
24000000.0 -0.500736368735141 -0.002712103407776533 0.4990249069998559 -0.023851502103046675 0.49873025762427103 -0.03489787250980096 0.4988470387781879 -0.029374854702869276
 0.49902490699985574 -0.023851502103046672 -0.500736368735141 -0.00271210340777654 0.498847038778188 -0.029374854702869276 0.49873025762427103 -0.03489787250980096
 0.49873025762427103 -0.034897872509800976 0.498847038778188 -0.029374854702869276 -0.500736368735141 -0.002712103407776535 0.49902490699985597 -0.023851502103046672
 0.4988470387781879 -0.02937485470286929 0.49873025762427103 -0.034897872509800976 0.4990249069998559 -0.02385150210304668 -0.500736368735141 -0.0027121034077765335
26000000.0 -0.5008637817405185 -0.0029290364280462077 0.4988560262730442 -0.02583061746354595 0.4985101604158559 -0.0377983752951961 0.4986472342410742 -0.03181470901387888
 0.49885602627304415 -0.025830617463545945 -0.5008637817405186 -0.0029290364280462056 0.49864723424107427 -0.03181470901387888 0.4985101604158559 -0.03779837529519609
 0.4985101604158559 -0.037798375295196085 0.4986472342410742 -0.03181470901387888 -0.5008637817405186 -0.0029290364280462043 0.49885602627304415 -0.025830617463545945
 0.49864723424107427 -0.03181470901387887 0.4985101604158559 -0.0377983752951961 0.49885602627304415 -0.025830617463545945 -0.5008637817405186 -0.0029290364280462073
28000000.0 -0.5010012456039037 -0.0031437977438237667 0.4986737697773194 -0.02780769691045602 0.49827256947454224 -0.040697047609732556 0.498431565425145 -0.03425263757178658
 0.49867376977731925 -0.027807696910456016 -0.5010012456039037 -0.003143797743823768 0.498431565425145 -0.03425263757178657 0.49827256947454235 -0.04069704760973255
 0.4982725694745422 -0.040697047609732556 0.498431565425145 -0.03425263757178658 -0.5010012456039036 -0.003143797743823764 0.4986737697773194 -0.027807696910456012
 0.49843156542514494 -0.034252637571786586 0.4982725694745423 -0.04069704760973257 0.4986737697773195 -0.027807696910456012 -0.5010012456039037 -0.0031437977438237607
30000000.0 -0.5011487276604918 -0.003356222769396076 0.49847816844631554 -0.0297825863047069 0.49801751096145674 -0.043593751066975966 0.49820005988731236 -0.03668849465903517
 0.4984781684463156 -0.02978258630470689 -0.5011487276604918 -0.0033562227693960723 0.4982000598873125 -0.036688494659035176 0.49801751096145663 -0.04359375106697596
 0.49801751096145674 -0.04359375106697595 0.4982000598873125 -0.036688494659035176 -0.5011487276604918 -0.00335622276939607 0.49847816844631543 -0.0297825863047069
 0.4982000598873125 -0.036688494659035176 0.49801751096145674 -0.04359375106697597 0.49847816844631554 -0.029782586304706905 -0.5011487276604918 -0.0033562227693960758
32000000.0 -0.501306192879865 -0.0035661474634768662 0.4982692554503132 -0.031755132051907484 0.497745012917824 -0.04648834781379831 0.4979527471686651 -0.03912213509100351
 0.4982692554503133 -0.03175513205190748 -0.5013061928798649 -0.003566147463476874 0.4979527471686651 -0.03912213509100351 0.4977450129178241 -0.04648834781379831
 0.49774501291782414 -0.04648834781379832 0.49795274716866517 -0.03912213509100351 -0.501306192879865 -0.003566147463476873 0.4982692554503133 -0.031755132051907484
 0.4979527471686651 -0.039122135091003506 0.497745012917824 -0.04648834781379831 0.4982692554503131 -0.03175513205190748 -0.5013061928798649 -0.003566147463476877
34000000.0 -0.5014736038774315 -0.0037734083666313865 0.49804706618464367 -0.03372518113978369 0.49745510525272174 -0.04938070056696194 0.4976896587823697 -0.04155341425256809
 0.4980470661846436 -0.033725181139783685 -0.5014736038774315 -0.0037734083666313835 0.4976896587823697 -0.04155341425256809 0.49745510525272185 -0.04938070056696194
 0.4974551052527217 -0.04938070056696192 0.49768965878236965 -0.041553414252568074 -0.5014736038774315 -0.0037734083666313757 0.49804706618464367 -0.03372518113978369
 0.4976896587823697 -0.04155341425256803 0.4974551052527217 -0.049380700566961935 0.49804706618464356 -0.033725181139783685 -0.5014736038774315 -0.003773408366631386
36000000.0 -0.5016509209266088 -0.003977842638402816 0.49781163825733754 -0.03569258117531768 0.49714781973003247 -0.05227067264939589 0.4974108282007815 -0.04398218813435813
 0.49781163825733743 -0.035692581175317664 -0.5016509209266087 -0.003977842638402821 0.4974108282007815 -0.04398218813435813 0.4971478197300325 -0.052270672649395875
 0.4971478197300325 -0.05227067264939589 0.49741082820078136 -0.04398218813435813 -0.5016509209266088 -0.0039778426384028225 0.49781163825733754 -0.03569258117531767
 0.4974108282007813 -0.04398218813435813 0.4971478197300326 -0.05227067264939588 0.49781163825733754 -0.03569258117531767 -0.5016509209266088 -0.003977842638402824
38000000.0 -0.5018381019717408 -0.004179288094122581 0.49756301147602877 -0.037657180421569694 0.49682318995460695 -0.05515812802614559 0.4971162908417742 -0.0464083133686848
 0.49756301147602877 -0.03765718042156969 -0.5018381019717408 -0.0041792880941225775 0.4971162908417743 -0.046408313368684805 0.49682318995460684 -0.055158128026145586
 0.49682318995460695 -0.0551581280261456 0.4971162908417742 -0.046408313368684784 -0.5018381019717408 -0.00417928809412259 0.49756301147602877 -0.037657180421569694
 0.4971162908417742 -0.04640831336868482 0.49682318995460684 -0.055158128026145586 0.4975630114760289 -0.03765718042156971 -0.501838101971741 -0.004179288094122573
40000000.0 -0.5020351026417424 -0.004377583241385902 0.4973012278341206 -0.03961882783416448 0.49648125135764337 -0.058042931339977226 0.49680608405430005 -0.04883164726512608
 0.4973012278341206 -0.0396188278341645 -0.5020351026417424 -0.004377583241385889 0.49680608405430005 -0.04883164726512607 0.4964812513576434 -0.058042931339977226
 0.49648125135764337 -0.05804293133997719 0.4968060840543 -0.048831647265126066 -0.5020351026417424 -0.004377583241385897 0.4973012278341206 -0.03961882783416448
 0.4968060840543 -0.04883164726512604 0.4964812513576433 -0.058042931339977205 0.4973012278341206 -0.03961882783416449 -0.5020351026417424 -0.004377583241385897
42000000.0 -0.5022418762644562 -0.0045725673161756426 0.4970263314962271 -0.04157737309742455 0.49612204118129744 -0.060924947946618235 0.4964802471031854 -0.05125204784574892
 0.49702633149622716 -0.04157737309742454 -0.5022418762644562 -0.004572567316175624 0.4964802471031853 -0.05125204784574891 0.49612204118129744 -0.060924947946618235
 0.49612204118129744 -0.0609249479466182 0.4964802471031853 -0.051252047845748896 -0.5022418762644562 -0.0045725673161756296 0.4970263314962271 -0.041577373097424555
 0.4964802471031853 -0.05125204784574887 0.49612204118129744 -0.06092494794661821 0.4970263314962271 -0.04157737309742454 -0.5022418762644562 -0.004572567316175638
44000000.0 -0.5024583738817177 -0.004764080318616198 0.4967383687828963 -0.04353266666013246 0.49574559846252697 -0.063804043949616 0.4961388211531763 -0.0536693738799506
 0.49673836878289634 -0.04353266666013246 -0.5024583738817177 -0.004764080318616194 0.4961388211531763 -0.053669373879950605 0.49574559846252697 -0.06380404394961599
 0.495745598462527 -0.06380404394961599 0.4961388211531763 -0.05366937387995061 -0.5024583738817178 -0.0047640803186161955 0.49673836878289634 -0.04353266666013247
 0.49613882115317637 -0.05366937387995059 0.49574559846252697 -0.06380404394961602 0.49673836878289623 -0.043532666660132474 -0.5024583738817177 -0.004764080318616206
46000000.0 -0.5026845442651128 -0.004951963048341061 0.49643738815463045 -0.045484559770905555 0.49535196401618886 -0.06668008623479682 0.4957818492522449 -0.056083484918901735
 0.49643738815463045 -0.04548455977090556 -0.5026845442651127 -0.004951963048341052 0.49578184925224483 -0.05608348491890175 0.49535196401618875 -0.06668008623479682
 0.49535196401618886 -0.06668008623479682 0.4957818492522448 -0.05608348491890175 -0.5026845442651128 -0.004951963048341052 0.49643738815463045 -0.04548455977090556
 0.49578184925224483 -0.05608348491890176 0.49535196401618886 -0.0666800862347968 0.49643738815463045 -0.04548455977090555 -0.5026845442651127 -0.004951963048341055
48000000.0 -0.5029203339324183 -0.005136057139456863 0.49612344019520993 -0.047432904513165924 0.49494118041739343 -0.06955294250430803 0.4954093763141626 -0.058494241329573385
 0.49612344019520976 -0.047432904513165924 -0.5029203339324182 -0.005136057139456856 0.4954093763141625 -0.05849424132957337 0.4949411804173935 -0.06955294250430805
 0.49494118041739343 -0.06955294250430805 0.49540937631416243 -0.05849424132957336 -0.5029203339324182 -0.005136057139456869 0.49612344019520993 -0.047432904513165924
 0.4954093763141624 -0.058494241329573385 0.49494118041739343 -0.06955294250430802 0.4961234401952099 -0.047432904513165924 -0.5029203339324182 -0.005136057139456864
50000000.0 -0.5031656871647143 -0.005316205095087834 0.4957965775943373 -0.04937755383968917 0.494513291983133 -0.0724224813102258 0.4950214491003593 -0.06090150432833129
 0.4957965775943373 -0.049377553839689184 -0.5031656871647142 -0.005316205095087823 0.4950214491003593 -0.060901504328331274 0.494513291983133 -0.0724224813102258
 0.494513291983133 -0.0724224813102258 0.4950214491003593 -0.06090150432833127 -0.5031656871647142 -0.005316205095087829 0.49579657759433726 -0.049377553839689184
 0.4950214491003594 -0.06090150432833126 0.4945132919831331 -0.07242248131022576 0.49579657759433726 -0.04937755383968916 -0.5031656871647142 -0.0053162050950878404
52000000.0 -0.5034205460241544 -0.005492250321484482 0.49545685512960963 -0.0513183616067163 0.4940683447531925 -0.07528857208771218 0.4946181162010752 -0.06330513601408094
 0.4954568551296097 -0.0513183616067163 -0.5034205460241544 -0.005492250321484458 0.4946181162010753 -0.06330513601408096 0.4940683447531925 -0.07528857208771217
 0.4940683447531925 -0.07528857208771216 0.4946181162010753 -0.06330513601408094 -0.5034205460241544 -0.005492250321484468 0.49545685512960963 -0.051318361606716316
 0.4946181162010754 -0.06330513601408091 0.49406834475319245 -0.07528857208771214 0.4954568551296097 -0.05131836160671631 -0.5034205460241545 -0.005492250321484477
54000000.0 -0.5036848503723832 -0.0056640371616809675 0.495104329647834 -0.05325518260761267 0.49360638647035643 -0.07815108518770517 0.49419942801581884 -0.06570499940094676
 0.49510432964783413 -0.05325518260761267 -0.5036848503723832 -0.005664037161680961 0.49419942801581873 -0.06570499940094678 0.4936063864703565 -0.0781510851877052
 0.4936063864703565 -0.07815108518770517 0.49419942801581873 -0.06570499940094676 -0.5036848503723832 -0.0056640371616809675 0.4951043296478342 -0.05325518260761268
 0.4941994280158188 -0.06570499940094675 0.4936063864703565 -0.07815108518770515 0.4951043296478341 -0.05325518260761265 -0.5036848503723832 -0.0056640371616809735
56000000.0 -0.5039585378895856 -0.005831410928686211 0.4947390600456994 -0.05518787260605883 0.49312746655992723 -0.08100989190912561 0.493765436733146 -0.0681009584504697
 0.4947390600456994 -0.055187872606058834 -0.5039585378895856 -0.005831410928686215 0.493765436733146 -0.0681009584504697 0.4931274665599271 -0.08100989190912562
 0.49312746655992723 -0.08100989190912564 0.493765436733146 -0.06810095845046973 -0.5039585378895857 -0.005831410928686204 0.49473906004569934 -0.055187872606058834
 0.49376543673314593 -0.06810095845046975 0.4931274665599271 -0.08100989190912564 0.49473906004569934 -0.05518787260605881 -0.5039585378895857 -0.005831410928686219
58000000.0 -0.5042415440941562 -0.005994217938193627 0.4943611072498164 -0.057116288368758907 0.49263163610856325 -0.08386486453058589 0.4933161963097722 -0.07049287810330837
 0.4943611072498164 -0.05711628836875893 -0.5042415440941563 -0.005994217938193616 0.4933161963097722 -0.07049287810330837 0.49263163610856325 -0.0838648645305859
 0.4926316361085632 -0.08386486453058593 0.4933161963097722 -0.07049287810330837 -0.5042415440941562 -0.005994217938193641 0.4943611072498165 -0.05711628836875893
