!Mini-Circuits Laboratory
!S-Parameters
!Model: QCH-451+
!DATA FOR: UNIT # 1
!Unit soldered on TB-914+
!Date: Sun Oct 15 15:06:04 2023
!Data & Calibration Information:
!Freq	S11:SOLT4(ON)	S12:SOLT4(ON)	S13:SOLT4(ON)	S14:SOLT4(ON)
!	S21:SOLT4(ON)	S22:SOLT4(ON)	S23:SOLT4(ON)	S24:SOLT4(ON)
!	S31:SOLT4(ON)	S32:SOLT4(ON)	S33:SOLT4(ON)	S34:SOLT4(ON)
!	S41:SOLT4(ON)	S42:SOLT4(ON)	S43:SOLT4(ON)	S44:SOLT4(ON)
!PortZ  Port1:50+j0    Port2:50+j0    Port3:50+j0    Port4:50+j0
!Above PortZ is port z conversion or system Z0 setting when saving the data.
!When reading, reference impedance value at option line is always used.
!PORT EXTENSION DONE ON TEST BOARD WITH LOSS ON AND MISMATCH ON
!Agilent Technologies,E5071C,MY46213417,A.11.34
# Hz S RI R 50
10000000	2.567862e-003	-6.800110e-003	3.291396e-004	5.743233e-003	9.915083e-001	-8.908272e-002	5.257463e-003	5.171297e-002
	3.385586e-004	5.648772e-003	3.471585e-003	-6.142072e-003	5.248215e-003	5.167324e-002	9.915788e-001	-8.938147e-002
	9.920293e-001	-8.914090e-002	5.281780e-003	5.170276e-002	3.362383e-003	-6.939977e-003	3.566361e-004	5.739009e-003
	5.255948e-003	5.171340e-002	9.915801e-001	-8.944605e-002	3.672105e-004	5.729477e-003	3.236026e-003	-6.443998e-003
11000000	2.631663e-003	-7.716907e-003	5.269270e-004	6.350807e-003	9.901935e-001	-9.805923e-002	6.274302e-003	5.676700e-002
	5.181800e-004	6.250777e-003	3.457717e-003	-7.266827e-003	6.266065e-003	5.671816e-002	9.903110e-001	-9.840929e-002
	9.906869e-001	-9.817026e-002	6.299447e-003	5.675678e-002	3.263587e-003	-7.835670e-003	5.210356e-004	6.318316e-003
	6.268804e-003	5.676169e-002	9.902450e-001	-9.840731e-002	5.404242e-004	6.342448e-003	2.994645e-003	-7.261505e-003
12000000	2.297997e-003	-8.645027e-003	7.254328e-004	6.933746e-003	9.887814e-001	-1.069552e-001	7.379089e-003	6.179647e-002
	7.230879e-004	6.805768e-003	3.149294e-003	-8.166020e-003	7.365528e-003	6.174947e-002	9.888292e-001	-1.071733e-001
	9.893018e-001	-1.070356e-001	7.396899e-003	6.178017e-002	2.903725e-003	-8.688685e-003	7.630505e-004	6.887638e-003
	7.371414e-003	6.178774e-002	9.887467e-001	-1.072756e-001	7.307723e-004	6.912066e-003	2.841822e-003	-8.382318e-003
13000000	2.119074e-003	-9.301490e-003	9.256886e-004	7.493038e-003	9.872342e-001	-1.157866e-001	8.573264e-003	6.679440e-002
	9.300804e-004	7.374605e-003	2.764917e-003	-8.948943e-003	8.545979e-003	6.674416e-002	9.872513e-001	-1.160352e-001
	9.877247e-001	-1.159830e-001	8.585412e-003	6.678178e-002	2.520487e-003	-9.618175e-003	9.800768e-004	7.447225e-003
	8.559208e-003	6.678790e-002	9.871551e-001	-1.161939e-001	9.598288e-004	7.476414e-003	2.533345e-003	-9.203816e-003
14000000	1.693190e-003	-1.018725e-002	1.175865e-003	8.027529e-003	9.855350e-001	-1.245592e-001	9.850718e-003	7.177222e-002
	1.179839e-003	7.915889e-003	2.243205e-003	-9.730259e-003	9.822823e-003	7.169682e-002	9.855214e-001	-1.248631e-001
	9.860706e-001	-1.247147e-001	9.863646e-003	7.174783e-002	2.176652e-003	-1.053139e-002	1.207170e-003	7.995551e-003
	9.827194e-003	7.175054e-002	9.854830e-001	-1.249609e-001	1.196133e-003	8.053622e-003	2.363312e-003	-9.957478e-003
15000000	1.262205e-003	-1.095798e-002	1.411034e-003	8.568734e-003	9.837775e-001	-1.332011e-001	1.121571e-002	7.671514e-002
	1.422866e-003	8.446368e-003	1.855309e-003	-1.032271e-002	1.117438e-002	7.665061e-002	9.837589e-001	-1.335363e-001
	9.843116e-001	-1.334003e-001	1.122119e-002	7.670454e-002	1.736977e-003	-1.128292e-002	1.454665e-003	8.520113e-003
	1.119605e-002	7.669885e-002	9.837541e-001	-1.336182e-001	1.445854e-003	8.591453e-003	1.852148e-003	-1.062587e-002
16000000	9.333249e-004	-1.161287e-002	1.650585e-003	9.095586e-003	9.818418e-001	-1.416911e-001	1.264381e-002	8.163133e-002
	1.672078e-003	8.983997e-003	1.531187e-003	-1.084652e-002	1.260456e-002	8.156219e-002	9.818620e-001	-1.420495e-001
	9.824499e-001	-1.418929e-001	1.265272e-002	8.162394e-002	1.314987e-003	-1.195412e-002	1.730504e-003	9.044321e-003
	1.263242e-002	8.161573e-002	9.819077e-001	-1.422316e-001	1.700585e-003	9.131870e-003	1.490526e-003	-1.136945e-002
17000000	4.562886e-004	-1.211155e-002	1.900598e-003	9.627300e-003	9.799533e-001	-1.501588e-001	1.414856e-002	8.651091e-002
	1.900459e-003	9.512381e-003	1.091554e-003	-1.135917e-002	1.411306e-002	8.645104e-002	9.798885e-001	-1.505010e-001
	9.805133e-001	-1.503625e-001	1.415844e-002	8.651111e-002	9.657918e-004	-1.237231e-002	1.994135e-003	9.576461e-003
	1.414889e-002	8.649992e-002	9.799100e-001	-1.507171e-001	1.929182e-003	9.658846e-003	1.044393e-003	-1.195136e-002
18000000	-7.783728e-005	-1.263907e-002	2.164219e-003	1.015001e-002	9.778599e-001	-1.585082e-001	1.573587e-002	9.135550e-002
	2.161613e-003	9.999417e-003	7.189935e-004	-1.191166e-002	1.568935e-002	9.130274e-002	9.779067e-001	-1.588470e-001
	9.784963e-001	-1.586585e-001	1.574986e-002	9.136661e-002	5.983795e-004	-1.288287e-002	2.270061e-003	1.007801e-002
	1.572953e-002	9.135814e-002	9.778183e-001	-1.590835e-001	2.205515e-003	1.016418e-002	4.711905e-004	-1.241584e-002
19000000	-5.718566e-004	-1.306722e-002	2.455722e-003	1.067253e-002	9.757014e-001	-1.667152e-001	1.740387e-002	9.616635e-002
	2.416018e-003	1.050481e-002	3.341075e-004	-1.239514e-002	1.735756e-002	9.612803e-002	9.757499e-001	-1.671449e-001
	9.764120e-001	-1.669231e-001	1.741702e-002	9.618779e-002	3.162179e-004	-1.336908e-002	2.547308e-003	1.059037e-002
	1.739692e-002	9.616638e-002	9.756770e-001	-1.673837e-001	2.490937e-003	1.067983e-002	-6.139974e-005	-1.302394e-002
20000000	-1.039443e-003	-1.338819e-002	2.723491e-003	1.119479e-002	9.733459e-001	-1.749968e-001	1.913519e-002	1.009453e-001
	2.657175e-003	1.097868e-002	-2.532121e-005	-1.267354e-002	1.911040e-002	1.009068e-001	9.735765e-001	-1.753957e-001
	9.743037e-001	-1.752512e-001	1.917073e-002	1.009726e-001	1.065033e-004	-1.375346e-002	2.844384e-003	1.108300e-002
	1.914608e-002	1.009574e-001	9.734670e-001	-1.757134e-001	2.752683e-003	1.122413e-002	-5.895478e-004	-1.353485e-002
21000000	-1.569608e-003	-1.400355e-002	3.019582e-003	1.166194e-002	9.711596e-001	-1.832023e-001	2.095689e-002	1.057089e-001
	2.974471e-003	1.146402e-002	-4.674369e-004	-1.311429e-002	2.093646e-002	1.056711e-001	9.714003e-001	-1.837392e-001
	9.719923e-001	-1.833142e-001	2.099630e-002	1.057359e-001	-3.396070e-004	-1.413475e-002	3.123172e-003	1.155029e-002
	2.095962e-002	1.057086e-001	9.712047e-001	-1.838901e-001	3.039456e-003	1.169161e-002	-1.154436e-003	-1.382711e-002
22000000	-1.982429e-003	-1.442227e-002	3.330066e-003	1.218054e-002	9.687873e-001	-1.913238e-001	2.285552e-002	1.104201e-001
	3.258285e-003	1.194863e-002	-8.028513e-004	-1.364052e-002	2.284397e-002	1.103937e-001	9.690610e-001	-1.918684e-001
	9.696694e-001	-1.915204e-001	2.291385e-002	1.104524e-001	-6.826432e-004	-1.460428e-002	3.438952e-003	1.202472e-002
	2.286670e-002	1.104299e-001	9.688080e-001	-1.920675e-001	3.354121e-003	1.218125e-002	-1.613539e-003	-1.426433e-002
23000000	-2.444010e-003	-1.488305e-002	3.632666e-003	1.266152e-002	9.663106e-001	-1.994962e-001	2.483734e-002	1.151066e-001
	3.581380e-003	1.243769e-002	-1.216977e-003	-1.397179e-002	2.482260e-002	1.150700e-001	9.666695e-001	-2.000597e-001
	9.673143e-001	-1.996452e-001	2.490240e-002	1.151483e-001	-1.002644e-003	-1.513678e-002	3.756317e-003	1.252632e-002
	2.484970e-002	1.151171e-001	9.664915e-001	-2.002720e-001	3.705627e-003	1.269142e-002	-1.906949e-003	-1.461425e-002
24000000	-2.684756e-003	-1.546330e-002	4.005244e-003	1.316124e-002	9.638741e-001	-2.074670e-001	2.688740e-002	1.197540e-001
	3.944219e-003	1.294294e-002	-1.573316e-003	-1.456070e-002	2.690566e-002	1.197259e-001	9.640701e-001	-2.082580e-001
	9.646987e-001	-2.077128e-001	2.698787e-002	1.198155e-001	-1.457755e-003	-1.566868e-002	4.068861e-003	1.302872e-002
	2.691348e-002	1.197844e-001	9.639283e-001	-2.082438e-001	4.036700e-003	1.314541e-002	-2.147810e-003	-1.495605e-002
25000000	-3.129922e-003	-1.572834e-002	4.315607e-003	1.362784e-002	9.614310e-001	-2.156163e-001	2.901695e-002	1.243750e-001
	4.241084e-003	1.338348e-002	-1.897514e-003	-1.479943e-002	2.902240e-002	1.243373e-001	9.615911e-001	-2.162084e-001
	9.623166e-001	-2.158451e-001	2.911324e-002	1.244157e-001	-1.847275e-003	-1.604888e-002	4.422634e-003	1.351187e-002
	2.903764e-002	1.243884e-001	9.615174e-001	-2.163914e-001	4.364542e-003	1.360654e-002	-2.445571e-003	-1.539032e-002
26000000	-3.351960e-003	-1.625166e-002	4.690971e-003	1.412007e-002	9.588072e-001	-2.236993e-001	3.123743e-002	1.289564e-001
	4.620983e-003	1.389517e-002	-2.213483e-003	-1.528092e-002	3.125839e-002	1.289150e-001	9.590504e-001	-2.243272e-001
	9.596589e-001	-2.239054e-001	3.133547e-002	1.289842e-001	-2.078176e-003	-1.648768e-002	4.736060e-003	1.397887e-002
	3.124415e-002	1.289612e-001	9.588723e-001	-2.243509e-001	4.713251e-003	1.412249e-002	-2.791714e-003	-1.555920e-002
27000000	-3.762476e-003	-1.646811e-002	5.090197e-003	1.458159e-002	9.560771e-001	-2.316687e-001	3.351494e-002	1.335000e-001
	4.950485e-003	1.436545e-002	-2.557163e-003	-1.580676e-002	3.354893e-002	1.334395e-001	9.563795e-001	-2.323492e-001
	9.570902e-001	-2.319930e-001	3.363922e-002	1.335155e-001	-2.386244e-003	-1.707611e-002	5.106009e-003	1.443374e-002
	3.353090e-002	1.335000e-001	9.562119e-001	-2.322827e-001	5.097346e-003	1.460756e-002	-2.993749e-003	-1.583280e-002
28000000	-4.048467e-003	-1.704364e-002	5.469490e-003	1.502286e-002	9.532545e-001	-2.395832e-001	3.589300e-002	1.379844e-001
	5.379179e-003	1.481235e-002	-3.002283e-003	-1.618040e-002	3.591914e-002	1.379118e-001	9.535869e-001	-2.402596e-001
	9.542641e-001	-2.398696e-001	3.600102e-002	1.379953e-001	-2.651402e-003	-1.761934e-002	5.451813e-003	1.492919e-002
	3.587541e-002	1.379921e-001	9.534843e-001	-2.401593e-001	5.515472e-003	1.511519e-002	-3.266454e-003	-1.619521e-002
29000000	-4.443643e-003	-1.741634e-002	5.875272e-003	1.548016e-002	9.505108e-001	-2.474589e-001	3.830303e-002	1.424332e-001
	5.757598e-003	1.525696e-002	-3.254554e-003	-1.656797e-002	3.836959e-002	1.423612e-001	9.506807e-001	-2.481775e-001
	9.514283e-001	-2.477899e-001	3.845140e-002	1.424459e-001	-3.212612e-003	-1.798448e-002	5.872348e-003	1.541584e-002
	3.831199e-002	1.424457e-001	9.506251e-001	-2.480498e-001	5.888132e-003	1.552396e-002	-3.429569e-003	-1.659564e-002
30000000	-4.748917e-003	-1.791857e-002	6.296876e-003	1.591915e-002	9.475147e-001	-2.553842e-001	4.082101e-002	1.468475e-001
	6.187612e-003	1.569977e-002	-3.613939e-003	-1.700139e-002	4.088038e-002	1.467482e-001	9.477686e-001	-2.560095e-001
	9.484943e-001	-2.555777e-001	4.098314e-002	1.468423e-001	-3.415355e-003	-1.841620e-002	6.259256e-003	1.583473e-002
	4.083686e-002	1.468453e-001	9.476672e-001	-2.559622e-001	6.317706e-003	1.602704e-002	-3.777255e-003	-1.692205e-002
31000000	-5.169917e-003	-1.839956e-002	6.759728e-003	1.631249e-002	9.445574e-001	-2.631426e-001	4.340874e-002	1.511941e-001
	6.618763e-003	1.612279e-002	-4.022440e-003	-1.758505e-002	4.346378e-002	1.511123e-001	9.447201e-001	-2.638788e-001
	9.455317e-001	-2.633922e-001	4.356573e-002	1.511995e-001	-3.902345e-003	-1.892658e-002	6.693884e-003	1.626127e-002
	4.341640e-002	1.512033e-001	9.447109e-001	-2.636922e-001	6.773715e-003	1.641651e-002	-4.087363e-003	-1.737764e-002
32000000	-5.474132e-003	-1.868622e-002	7.202320e-003	1.674280e-002	9.414625e-001	-2.709888e-001	4.607078e-002	1.555132e-001
	7.011859e-003	1.656475e-002	-4.375301e-003	-1.795656e-002	4.613502e-002	1.553978e-001	9.416261e-001	-2.717105e-001
	9.424136e-001	-2.713207e-001	4.624234e-002	1.554981e-001	-4.302218e-003	-1.926411e-002	7.103140e-003	1.668682e-002
	4.607772e-002	1.555165e-001	9.416712e-001	-2.714970e-001	7.163660e-003	1.687183e-002	-4.412444e-003	-1.772651e-002
33000000	-5.744990e-003	-1.912205e-002	7.712911e-003	1.709938e-002	9.384218e-001	-2.786576e-001	4.880570e-002	1.597778e-001
	7.485960e-003	1.696596e-002	-4.844892e-003	-1.853251e-002	4.886855e-002	1.596664e-001	9.384983e-001	-2.794442e-001
	9.392547e-001	-2.790270e-001	4.896860e-002	1.597671e-001	-4.780551e-003	-1.972266e-002	7.566232e-003	1.710412e-002
	4.880235e-002	1.597869e-001	9.386001e-001	-2.791949e-001	7.646464e-003	1.723608e-002	-4.711215e-003	-1.821840e-002
34000000	-6.160196e-003	-1.971221e-002	8.203521e-003	1.750679e-002	9.352362e-001	-2.863650e-001	5.160011e-002	1.639846e-001
	7.985265e-003	1.736560e-002	-5.168467e-003	-1.902898e-002	5.165559e-002	1.638626e-001	9.352883e-001	-2.871266e-001
	9.361040e-001	-2.866152e-001	5.178232e-002	1.639613e-001	-5.212411e-003	-2.005043e-002	8.072978e-003	1.751171e-002
	5.160194e-002	1.639960e-001	9.353648e-001	-2.869364e-001	8.116721e-003	1.765048e-002	-5.041340e-003	-1.865572e-002
35000000	-6.457597e-003	-2.018743e-002	8.730121e-003	1.787583e-002	9.319801e-001	-2.940128e-001	5.446152e-002	1.681510e-001
	8.474840e-003	1.780572e-002	-5.616804e-003	-1.949941e-002	5.454271e-002	1.680148e-001	9.319962e-001	-2.947197e-001
	9.327201e-001	-2.942402e-001	5.465203e-002	1.681139e-001	-5.673514e-003	-2.043928e-002	8.578800e-003	1.787632e-002
	5.447520e-002	1.681361e-001	9.321368e-001	-2.945348e-001	8.595320e-003	1.802035e-002	-5.403402e-003	-1.923213e-002
36000000	-6.744335e-003	-2.060032e-002	9.264557e-003	1.825148e-002	9.285781e-001	-3.015679e-001	5.739830e-002	1.722523e-001
	8.973982e-003	1.817988e-002	-5.933599e-003	-1.995031e-002	5.748319e-002	1.721182e-001	9.286608e-001	-3.023486e-001
	9.293351e-001	-3.017885e-001	5.759050e-002	1.722141e-001	-6.081886e-003	-2.089829e-002	9.092195e-003	1.827968e-002
	5.740523e-002	1.722603e-001	9.287621e-001	-3.021366e-001	9.114812e-003	1.841461e-002	-5.734612e-003	-1.970032e-002
37000000	-7.087589e-003	-2.109967e-002	9.828724e-003	1.864770e-002	9.252304e-001	-3.090125e-001	6.039817e-002	1.763052e-001
	9.505327e-003	1.857399e-002	-6.267568e-003	-2.043644e-002	6.047010e-002	1.761554e-001	9.251693e-001	-3.099080e-001
	9.258550e-001	-3.093334e-001	6.059337e-002	1.762529e-001	-6.625236e-003	-2.140789e-002	9.600716e-003	1.865970e-002
	6.041333e-002	1.763035e-001	9.252837e-001	-3.097048e-001	9.676072e-003	1.878023e-002	-6.101357e-003	-2.008874e-002
38000000	-7.430176e-003	-2.155792e-002	1.038431e-002	1.895419e-002	9.216930e-001	-3.165342e-001	6.347252e-002	1.802944e-001
	1.003215e-002	1.895338e-002	-6.698777e-003	-2.094423e-002	6.353960e-002	1.801495e-001	9.216391e-001	-3.173496e-001
	9.222822e-001	-3.168173e-001	6.367947e-002	1.802423e-001	-7.062810e-003	-2.175205e-002	1.014967e-002	1.899444e-002
	6.347580e-002	1.802968e-001	9.217255e-001	-3.171421e-001	1.019461e-002	1.910519e-002	-6.518492e-003	-2.061758e-002
39000000	-7.923241e-003	-2.208294e-002	1.095407e-002	1.930372e-002	9.180855e-001	-3.240725e-001	6.660117e-002	1.842290e-001
	1.061382e-002	1.926184e-002	-7.137330e-003	-2.142390e-002	6.669672e-002	1.840664e-001	9.180151e-001	-3.248304e-001
	9.186768e-001	-3.241425e-001	6.682706e-002	1.841624e-001	-7.464895e-003	-2.198439e-002	1.066914e-002	1.928703e-002
	6.660342e-002	1.842247e-001	9.180796e-001	-3.246031e-001	1.066983e-002	1.944932e-002	-6.951040e-003	-2.095799e-002
40000000	-8.331842e-003	-2.238717e-002	1.156823e-002	1.958425e-002	9.143475e-001	-3.314534e-001	6.980263e-002	1.880986e-001
	1.112836e-002	1.962963e-002	-7.663005e-003	-2.188900e-002	6.989585e-002	1.879390e-001	9.142895e-001	-3.322390e-001
	9.148809e-001	-3.315967e-001	7.001050e-002	1.880281e-001	-7.951572e-003	-2.243074e-002	1.122080e-002	1.959161e-002
	6.981015e-002	1.880811e-001	9.143715e-001	-3.319556e-001	1.123242e-002	1.980407e-002	-7.491530e-003	-2.133745e-002
41000000	-8.846381e-003	-2.280938e-002	1.212877e-002	1.991226e-002	9.105318e-001	-3.387740e-001	7.306914e-002	1.919108e-001
	1.172838e-002	1.988232e-002	-8.041093e-003	-2.229517e-002	7.314988e-002	1.917382e-001	9.104838e-001	-3.395676e-001
	9.111002e-001	-3.387874e-001	7.328442e-002	1.918261e-001	-8.511675e-003	-2.283834e-002	1.178846e-002	1.984458e-002
	7.305026e-002	1.919003e-001	9.104937e-001	-3.393130e-001	1.181772e-002	2.006551e-002	-8.045364e-003	-2.179014e-002
42000000	-9.228529e-003	-2.325435e-002	1.268264e-002	2.018485e-002	9.067067e-001	-3.459809e-001	7.639968e-002	1.956642e-001
	1.231783e-002	2.019749e-002	-8.550963e-003	-2.262175e-002	7.648164e-002	1.954959e-001	9.065561e-001	-3.469504e-001
	9.071216e-001	-3.461149e-001	7.661508e-002	1.955855e-001	-9.028869e-003	-2.332757e-002	1.231066e-002	2.015109e-002
	7.637703e-002	1.956442e-001	9.066417e-001	-3.466420e-001	1.241672e-002	2.028569e-002	-8.404087e-003	-2.205833e-002
43000000	-9.704192e-003	-2.370155e-002	1.325924e-002	2.041026e-002	9.026414e-001	-3.532217e-001	7.978030e-002	1.993573e-001
	1.293963e-002	2.049390e-002	-9.001598e-003	-2.300785e-002	7.986573e-002	1.991636e-001	9.026714e-001	-3.541514e-001
	9.031651e-001	-3.532649e-001	8.001996e-002	1.992843e-001	-9.426346e-003	-2.387528e-002	1.288715e-002	2.034767e-002
	7.975159e-002	1.993259e-001	9.026747e-001	-3.539111e-001	1.305749e-002	2.065169e-002	-9.066034e-003	-2.242551e-002
44000000	-1.025388e-002	-2.398846e-002	1.382145e-002	2.069424e-002	8.986288e-001	-3.603676e-001	8.322636e-002	2.029902e-001
	1.350411e-002	2.075257e-002	-9.457188e-003	-2.337398e-002	8.331203e-002	2.028036e-001	8.986717e-001	-3.613919e-001
	8.991396e-001	-3.605539e-001	8.348308e-002	2.029046e-001	-9.898786e-003	-2.425647e-002	1.346489e-002	2.059097e-002
	8.320816e-002	2.029490e-001	8.986424e-001	-3.611588e-001	1.366039e-002	2.089310e-002	-9.581439e-003	-2.280660e-002
45000000	-1.081335e-002	-2.437179e-002	1.446258e-002	2.097571e-002	8.944691e-001	-3.674470e-001	8.671029e-002	2.065640e-001
	1.418713e-002	2.096612e-002	-9.898838e-003	-2.386164e-002	8.682572e-002	2.063640e-001	8.946040e-001	-3.685552e-001
	8.950206e-001	-3.676037e-001	8.699958e-002	2.064524e-001	-1.043495e-002	-2.486084e-002	1.402486e-002	2.076324e-002
	8.668875e-002	2.065090e-001	8.944915e-001	-3.682839e-001	1.433930e-002	2.113134e-002	-1.012704e-002	-2.306534e-002
46000000	-1.130204e-002	-2.480141e-002	1.505368e-002	2.121549e-002	8.903946e-001	-3.745276e-001	9.027530e-002	2.100496e-001
	1.479989e-002	2.121576e-002	-1.035523e-002	-2.419756e-002	9.037581e-002	2.098678e-001	8.904421e-001	-3.756487e-001
	8.908595e-001	-3.747105e-001	9.055530e-002	2.099617e-001	-1.090276e-002	-2.528842e-002	1.461865e-002	2.099325e-002
	9.026111e-002	2.100035e-001	8.902928e-001	-3.753486e-001	1.494611e-002	2.132157e-002	-1.080279e-002	-2.336708e-002
47000000	-1.179102e-002	-2.510281e-002	1.569282e-002	2.137843e-002	8.861432e-001	-3.814849e-001	9.389396e-002	2.134962e-001
	1.539583e-002	2.143028e-002	-1.089022e-002	-2.456432e-002	9.399691e-002	2.133134e-001	8.862296e-001	-3.826966e-001
	8.865966e-001	-3.816959e-001	9.416708e-002	2.133996e-001	-1.149962e-002	-2.579669e-002	1.517406e-002	2.117641e-002
	9.386670e-002	2.134321e-001	8.860703e-001	-3.823787e-001	1.561562e-002	2.149012e-002	-1.127328e-002	-2.364232e-002
48000000	-1.243037e-002	-2.546188e-002	1.630249e-002	2.159037e-002	8.818110e-001	-3.884349e-001	9.755222e-002	2.168731e-001
	1.603131e-002	2.159148e-002	-1.147174e-002	-2.485897e-002	9.766555e-002	2.166718e-001	8.820074e-001	-3.896631e-001
	8.823321e-001	-3.886339e-001	9.784046e-002	2.167546e-001	-1.203165e-002	-2.616020e-002	1.579364e-002	2.127565e-002
	9.753137e-002	2.167886e-001	8.817746e-001	-3.893792e-001	1.627173e-002	2.168765e-002	-1.203632e-002	-2.389126e-002
49000000	-1.295134e-002	-2.567149e-002	1.686692e-002	2.173165e-002	8.775070e-001	-3.953088e-001	1.012714e-001	2.201814e-001
	1.664343e-002	2.178661e-002	-1.200882e-002	-2.515009e-002	1.013932e-001	2.199783e-001	8.776525e-001	-3.965883e-001
	8.779150e-001	-3.955655e-001	1.015752e-001	2.200655e-001	-1.269996e-002	-2.656907e-002	1.642777e-002	2.137543e-002
	1.012391e-001	2.200787e-001	8.773926e-001	-3.963121e-001	1.691577e-002	2.180074e-002	-1.265108e-002	-2.417453e-002
50000000	-1.373618e-002	-2.603095e-002	1.750153e-002	2.193290e-002	8.731011e-001	-4.020756e-001	1.050343e-001	2.234034e-001
	1.729321e-002	2.185304e-002	-1.248272e-002	-2.538006e-002	1.051431e-001	2.232097e-001	8.732100e-001	-4.033548e-001
	8.735402e-001	-4.023308e-001	1.053318e-001	2.232829e-001	-1.335038e-002	-2.692243e-002	1.702611e-002	2.150789e-002
